T2554 682:796 SEGGER J-Link V6.32i Log File (0000ms, 64283ms total)
T2554 682:796 DLL Compiled: Jul 24 2018 15:19:55 (0000ms, 64283ms total)
T2554 682:796 Logging started @ 2019-04-08 21:23 (0000ms, 64283ms total)
T2554 682:796 JLINK_SetWarnOutHandler(...) (0000ms, 64283ms total)
T2554 682:796 JLINK_OpenEx(...)
Firmware: J-Link V9 compiled Oct 25 2018 11:46:07
Hardware: V9.50
S/N: 59502773
Feature(s): GDB, RDI, FlashBP, FlashDL, JFlash
TELNET listener socket opened on port 19021WEBSRV 
Starting webserver (0016ms, 64299ms total)
T2554 682:796 WEBSRV Webserver running on local port 19080 (0016ms, 64299ms total)
T2554 682:796   returns O.K. (0016ms, 64299ms total)
T2554 682:812 JLINK_GetEmuCaps()  returns 0xB9FF7BBF (0000ms, 64299ms total)
T2554 682:813 JLINK_TIF_GetAvailable(...) (0001ms, 64300ms total)
T2554 682:814 JLINK_SetErrorOutHandler(...) (0000ms, 64300ms total)
T2554 682:814 JLINK_ExecCommand("ProjectFile = "E:\code\c\mcu\test\stm32_f407_can\MDK-ARM\JLinkSettings.ini"", ...).   returns 0x00 (0003ms, 64303ms total)
T2554 682:817 JLINK_ExecCommand("Device = STM32F407VETx", ...). Device "STM32F407VE" selected.  returns 0x00 (0002ms, 64305ms total)
T2554 682:819 JLINK_ExecCommand("DisableConnectionTimeout", ...).   returns 0x01 (0000ms, 64305ms total)
T2554 682:819 JLINK_GetHardwareVersion()  returns 0x17318 (0000ms, 64305ms total)
T2554 682:819 JLINK_GetDLLVersion()  returns 63209 (0000ms, 64305ms total)
T2554 682:819 JLINK_GetFirmwareString(...) (0000ms, 64305ms total)
T2554 682:819 JLINK_GetDLLVersion()  returns 63209 (0000ms, 64305ms total)
T2554 682:819 JLINK_GetCompileDateTime() (0000ms, 64305ms total)
T2554 682:819 JLINK_GetFirmwareString(...) (0000ms, 64305ms total)
T2554 682:819 JLINK_GetHardwareVersion()  returns 0x17318 (0000ms, 64305ms total)
T2554 682:819 JLINK_TIF_Select(JLINKARM_TIF_SWD)  returns 0x00 (0002ms, 64307ms total)
T2554 682:821 JLINK_SetSpeed(5000) (0000ms, 64307ms total)
T2554 682:821 JLINK_GetId() >0x10B TIF>Found SW-DP with ID 0x2BA01477 >0x0D TIF> >0x28 TIF> >0x0D TIF> >0x28 TIF> >0x0D TIF> >0x28 TIF> >0x0D TIF> >0x28 TIF> >0x0D TIF> >0x21 TIF> >0x0D TIF> >0x28 TIF> >0x0D TIF> >0x28 TIF> >0x0D TIF> >0x28 TIF> >0x0D TIF> >0x21 TIF> >0x0D TIF> >0x21 TIF> >0x0D TIF> >0x28 TIF> >0x0D TIF> >0x21 TIF> >0x0D TIF> >0x21 TIF> >0x0D TIF> >0x28 TIF> >0x0D TIF> >0x21 TIF> >0x0D TIF> >0x21 TIF> >0x0D TIF> >0x28 TIF> >0x0D TIF> >0x21 TIF> >0x0D TIF> >0x21 TIF> >0x0D TIF> >0x28 TIF>
 >0x0D TIF> >0x21 TIF> >0x0D TIF> >0x21 TIF> >0x0D TIF> >0x28 TIF> >0x0D TIF> >0x21 TIF> >0x0D TIF> >0x21 TIF> >0x10B TIF>Found SW-DP with ID 0x2BA01477 >0x0D TIF> >0x28 TIF> >0x0D TIF> >0x28 TIF> >0x0D TIF> >0x28 TIF> >0x0D TIF> >0x28 TIF> >0x0D TIF> >0x21 TIF> >0x0D TIF> >0x28 TIF>Scanning AP map to find all available APs >0x0D TIF> >0x28 TIF> >0x0D TIF> >0x21 TIF> >0x0D TIF> >0x21 TIF> >0x0D TIF> >0x28 TIF> >0x0D TIF> >0x21 TIF> >0x0D TIF> >0x21 TIF>
AP[1]: Stopped AP scan as end of AP map has been reachedAP[0]: AHB-AP (IDR: 0x24770011)Iterating through AP map to find AHB-AP to use >0x42 TIF> >0x28 TIF> >0x0D TIF> >0x28 TIF> >0x0D TIF> >0x21 TIF> >0x0D TIF> >0x21 TIF> >0x42 TIF> >0x28 TIF> >0x0D TIF> >0x28 TIF> >0x0D TIF> >0x28 TIF> >0x0D TIF> >0x21 TIF> >0x0D TIF> >0x21 TIF>AP[0]: Core foundAP[0]: AHB-AP ROM base: 0xE00FF000 >0x0D TIF> >0x28 TIF> >0x0D TIF> >0x28 TIF> >0x0D TIF> >0x28 TIF> >0x0D TIF> >0x21 TIF> >0x0D TIF> >0x21 TIF>
CPUID register: 0x410FC241. Implementer code: 0x41 (ARM)Found Cortex-M4 r0p1, Little endian. -- Max. mem block: 0x0000BA40 -- CPU_ReadMem(4 bytes @ 0xE000EDF0) -- CPU_WriteMem(4 bytes @ 0xE000EDF0) -- CPU_ReadMem(4 bytes @ 0xE0002000)FPUnit: 6 code (BP) slots and 2 literal slots -- CPU_ReadMem(4 bytes @ 0xE000EDFC) -- CPU_WriteMem(4 bytes @ 0xE000EDFC) -- CPU_ReadMem(4 bytes @ 0xE0001000) -- CPU_WriteMem(4 bytes @ 0xE0001000) -- CPU_ReadMem(4 bytes @ 0xE000ED88) -- CPU_WriteMem(4 bytes @ 0xE000ED88)
 -- CPU_ReadMem(4 bytes @ 0xE000ED88) -- CPU_WriteMem(4 bytes @ 0xE000ED88)CoreSight components:ROMTbl[0] @ E00FF000 -- CPU_ReadMem(16 bytes @ 0xE00FF000) -- CPU_ReadMem(16 bytes @ 0xE000EFF0) -- CPU_ReadMem(16 bytes @ 0xE000EFE0)ROMTbl[0][0]: E000E000, CID: B105E00D, PID: 000BB00C SCS-M7 -- CPU_ReadMem(16 bytes @ 0xE0001FF0) -- CPU_ReadMem(16 bytes @ 0xE0001FE0)ROMTbl[0][1]: E0001000, CID: B105E00D, PID: 003BB002 DWT -- CPU_ReadMem(16 bytes @ 0xE0002FF0) -- CPU_ReadMem(16 bytes @ 0xE0002FE0)
ROMTbl[0][2]: E0002000, CID: B105E00D, PID: 002BB003 FPB -- CPU_ReadMem(16 bytes @ 0xE0000FF0) -- CPU_ReadMem(16 bytes @ 0xE0000FE0)ROMTbl[0][3]: E0000000, CID: B105E00D, PID: 003BB001 ITM -- CPU_ReadMem(16 bytes @ 0xE00FF010) -- CPU_ReadMem(16 bytes @ 0xE0040FF0) -- CPU_ReadMem(16 bytes @ 0xE0040FE0)ROMTbl[0][4]: E0040000, CID: B105900D, PID: 000BB9A1 TPIU -- CPU_ReadMem(16 bytes @ 0xE0041FF0) -- CPU_ReadMem(16 bytes @ 0xE0041FE0)ROMTbl[0][5]: E0041000, CID: B105900D, PID: 000BB925 ETM >0x0D TIF>
 >0x21 TIF>  returns 0x2BA01477 (0170ms, 64477ms total)
T2554 682:991 JLINK_GetDLLVersion()  returns 63209 (0000ms, 64477ms total)
T2554 682:991 JLINK_CORE_GetFound()  returns 0xE0000FF (0000ms, 64477ms total)
T2554 682:991 JLINK_GetDebugInfo(0x100 = JLINKARM_ROM_TABLE_ADDR_INDEX) -- Value=0xE00FF000  returns 0x00 (0000ms, 64477ms total)
T2554 682:991 JLINK_GetDebugInfo(0x100 = JLINKARM_ROM_TABLE_ADDR_INDEX) -- Value=0xE00FF000  returns 0x00 (0000ms, 64477ms total)
T2554 682:991 JLINK_GetDebugInfo(0x101 = JLINKARM_DEBUG_INFO_ETM_ADDR_INDEX) -- Value=0xE0041000  returns 0x00 (0000ms, 64477ms total)
T2554 682:991 JLINK_ReadMemEx(0xE0041FD0, 0x0020 Bytes, ..., Flags = 0x02000004) -- CPU_ReadMem(32 bytes @ 0xE0041FD0) - Data: 04 00 00 00 00 00 00 00 00 00 00 00 00 00 00 00 ...  returns 0x20 (0001ms, 64478ms total)
T2554 682:992 JLINK_GetDebugInfo(0x102 = JLINKARM_DEBUG_INFO_MTB_ADDR_INDEX) -- Value=0x00000000  returns 0x00 (0000ms, 64478ms total)
T2554 682:992 JLINK_GetDebugInfo(0x103 = JLINKARM_DEBUG_INFO_TPIU_ADDR_INDEX) -- Value=0xE0040000  returns 0x00 (0000ms, 64478ms total)
T2554 682:992 JLINK_GetDebugInfo(0x104 = JLINKARM_DEBUG_INFO_ITM_ADDR_INDEX) -- Value=0xE0000000  returns 0x00 (0000ms, 64478ms total)
T2554 682:992 JLINK_GetDebugInfo(0x105 = JLINKARM_DEBUG_INFO_DWT_ADDR_INDEX) -- Value=0xE0001000  returns 0x00 (0000ms, 64478ms total)
T2554 682:992 JLINK_GetDebugInfo(0x106 = JLINKARM_DEBUG_INFO_FPB_ADDR_INDEX) -- Value=0xE0002000  returns 0x00 (0000ms, 64478ms total)
T2554 682:992 JLINK_GetDebugInfo(0x107 = JLINKARM_DEBUG_INFO_NVIC_ADDR_INDEX) -- Value=0xE000E000  returns 0x00 (0000ms, 64478ms total)
T2554 682:992 JLINK_GetDebugInfo(0x10C = JLINKARM_DEBUG_INFO_DBG_ADDR_INDEX) -- Value=0xE000EDF0  returns 0x00 (0000ms, 64478ms total)
T2554 682:992 JLINK_GetDebugInfo(0x01 = Unknown) -- Value=0x00000001  returns 0x00 (0000ms, 64478ms total)
T2554 682:992 JLINK_ReadMemU32(0xE000ED00, 0x0001 Items, ...) -- CPU_ReadMem(4 bytes @ 0xE000ED00) - Data: 41 C2 0F 41  returns 0x01 (0001ms, 64479ms total)
T2554 682:993 JLINK_GetDebugInfo(0x10F = JLINKARM_DEBUG_INFO_HAS_CORTEX_M_SECURITY_EXT_INDEX) -- Value=0x00000000  returns 0x00 (0000ms, 64479ms total)
T2554 682:993 JLINK_SetResetType(JLINKARM_CM3_RESET_TYPE_NORMAL)  returns JLINKARM_CM3_RESET_TYPE_NORMAL (0000ms, 64479ms total)
T2554 682:993 JLINK_Reset() -- CPU is running -- CPU_WriteMem(4 bytes @ 0xE000EDF0) -- CPU is running -- CPU_WriteMem(4 bytes @ 0xE000EDFC)Reset: Halt core after reset via DEMCR.VC_CORERESET. >0x35 TIF>Reset: Reset device via AIRCR.SYSRESETREQ. -- CPU is running -- CPU_WriteMem(4 bytes @ 0xE000ED0C) >0x0D TIF> >0x28 TIF> -- CPU_ReadMem(4 bytes @ 0xE000EDF0) -- CPU_ReadMem(4 bytes @ 0xE000EDF0) -- CPU is running -- CPU_WriteMem(4 bytes @ 0xE000EDF0) -- CPU is running -- CPU_WriteMem(4 bytes @ 0xE000EDFC)
 -- CPU_ReadMem(4 bytes @ 0xE000EDF0) -- CPU_WriteMem(4 bytes @ 0xE0002000) -- CPU_ReadMem(4 bytes @ 0xE000EDFC) -- CPU_ReadMem(4 bytes @ 0xE0001000) (0067ms, 64546ms total)
T2554 683:060 JLINK_ReadReg(R15 (PC))  returns 0x0800025C (0000ms, 64546ms total)
T2554 683:060 JLINK_ReadReg(XPSR)  returns 0x01000000 (0000ms, 64546ms total)
T2554 683:060 JLINK_Halt()  returns 0x00 (0000ms, 64546ms total)
T2554 683:060 JLINK_ReadMemU32(0xE000EDF0, 0x0001 Items, ...) -- CPU_ReadMem(4 bytes @ 0xE000EDF0) - Data: 03 00 03 00  returns 0x01 (0001ms, 64547ms total)
T2554 683:061 JLINK_WriteU32(0xE000EDF0, 0xA05F0003) -- CPU_WriteMem(4 bytes @ 0xE000EDF0)  returns 0x00 (0000ms, 64547ms total)
T2554 683:061 JLINK_WriteU32(0xE000EDFC, 0x01000000) -- CPU_WriteMem(4 bytes @ 0xE000EDFC)  returns 0x00 (0000ms, 64547ms total)
T2554 683:061 JLINK_GetHWStatus(...)  returns 0x00 (0000ms, 64547ms total)
T2554 683:061 JLINK_GetNumBPUnits(Type = 0xFFFFFF00)  returns 0x06 (0000ms, 64547ms total)
T2554 683:061 JLINK_GetNumBPUnits(Type = 0xF0)  returns 0x2000 (0000ms, 64547ms total)
T2554 683:061 JLINK_GetNumWPUnits()  returns 0x04 (0000ms, 64547ms total)
T2554 683:061 JLINK_GetSpeed()  returns 0xFA0 (0000ms, 64547ms total)
T2554 683:061 JLINK_ReadMemU32(0xE000E004, 0x0001 Items, ...) -- CPU_ReadMem(4 bytes @ 0xE000E004) - Data: 02 00 00 00  returns 0x01 (0001ms, 64548ms total)
T2554 683:062 JLINK_ReadMemU32(0xE000E004, 0x0001 Items, ...) -- CPU_ReadMem(4 bytes @ 0xE000E004) - Data: 02 00 00 00  returns 0x01 (0000ms, 64548ms total)
T2554 683:062 JLINK_WriteMemEx(0xE0001000, 0x001C Bytes, ..., Flags = 0x02000004) - Data: 01 00 00 00 00 00 00 00 00 00 00 00 00 00 00 00 ... -- CPU_WriteMem(28 bytes @ 0xE0001000)  returns 0x1C (0001ms, 64549ms total)
T2554 683:063 JLINK_ReadReg(R15 (PC))  returns 0x0800025C (0000ms, 64549ms total)
T2554 683:063 JLINK_ReadReg(XPSR)  returns 0x01000000 (0000ms, 64549ms total)
T2554 683:063 JLINK_WriteU32(0xE0041FB0, 0xC5ACCE55) -- CPU_WriteMem(4 bytes @ 0xE0041FB0)  returns 0x00 (0002ms, 64551ms total)
T2554 683:065 JLINK_ReadMemU32(0xE0041000, 0x0001 Items, ...) -- CPU_ReadMem(4 bytes @ 0xE0041000) - Data: 01 00 00 00  returns 0x01 (0001ms, 64552ms total)
T2554 683:066 JLINK_WriteU32(0xE0041000, 0x00000000) -- CPU_WriteMem(4 bytes @ 0xE0041000)  returns 0x00 (0001ms, 64553ms total)
T2554 683:068 JLINK_SWO_Control(JLINKARM_SWO_CMD_GET_SPEED_INFO, ...)  returns 0x00 (0001ms, 64554ms total)
T2554 683:069 JLINK_SWO_Control(JLINKARM_SWO_CMD_STOP, ...)  returns 0x00 (0000ms, 64554ms total)
T2554 683:069 JLINK_SWO_Control(JLINKARM_SWO_CMD_START, ...) -- UART -- 7304347bps -- CPU_ReadMem(4 bytes @ 0xE0042004)  returns 0x00 (0001ms, 64555ms total)
T2554 683:071 JLINK_WriteU32(0xE0040004, 0x00000001) -- CPU_WriteMem(4 bytes @ 0xE0040004)  returns 0x00 (0000ms, 64555ms total)
T2554 683:071 JLINK_WriteU32(0xE0040010, 0x00000016)  returns 0x00 (0001ms, 64556ms total)
T2554 683:072 JLINK_WriteU32(0xE00400F0, 0x00000002)  returns 0x00 (0000ms, 64556ms total)
T2554 683:072 JLINK_WriteU32(0xE0040304, 0x00000000)  returns 0x00 (0000ms, 64556ms total)
T2554 683:072 JLINK_WriteU32(0xE0000FB0, 0xC5ACCE55) -- CPU_WriteMem(4 bytes @ 0xE0000FB0)  returns 0x00 (0000ms, 64556ms total)
T2554 683:072 JLINK_WriteU32(0xE0000E80, 0x0001000D)  returns 0x00 (0000ms, 64556ms total)
T2554 683:072 JLINK_WriteU32(0xE0000E00, 0x00000001)  returns 0x00 (0000ms, 64556ms total)
T2554 683:072 JLINK_WriteU32(0xE0000E40, 0x00000000)  returns 0x00 (0000ms, 64556ms total)
T2554 683:072 JLINK_WriteU32(0xE0001000, 0x00010A1F)  returns 0x00 (0000ms, 64556ms total)
T2554 683:100 JLINK_ReadMemEx(0xE0001004, 0x0004 Bytes, ..., Flags = 0x02000000) - Data: 00 00 00 00  returns 0x04 (0000ms, 64556ms total)
T2554 683:203 JLINK_SetResetType(JLINKARM_CM3_RESET_TYPE_NORMAL)  returns JLINKARM_CM3_RESET_TYPE_NORMAL (0000ms, 64556ms total)
T2554 683:203 JLINK_Reset() -- CPU_WriteMem(4 bytes @ 0xE0000E00) -- CPU_WriteMem(4 bytes @ 0xE0000E40) -- CPU_WriteMem(4 bytes @ 0xE0000E80) -- CPU_WriteMem(4 bytes @ 0xE0001000) -- CPU_WriteMem(4 bytes @ 0xE0040010) -- CPU_WriteMem(4 bytes @ 0xE00400F0) -- CPU_WriteMem(4 bytes @ 0xE0040304) -- CPU_WriteMem(4 bytes @ 0xE000EDF0) -- CPU_WriteMem(4 bytes @ 0xE000EDFC)Reset: Halt core after reset via DEMCR.VC_CORERESET. >0x35 TIF>Reset: Reset device via AIRCR.SYSRESETREQ.
 -- CPU_WriteMem(4 bytes @ 0xE000ED0C) >0x0D TIF> >0x28 TIF> -- CPU_ReadMem(4 bytes @ 0xE000EDF0) -- CPU_ReadMem(4 bytes @ 0xE000EDF0) -- CPU_WriteMem(4 bytes @ 0xE000EDF0) -- CPU_WriteMem(4 bytes @ 0xE000EDFC) -- CPU_ReadMem(4 bytes @ 0xE000EDF0) -- CPU_WriteMem(4 bytes @ 0xE0002000) -- CPU_ReadMem(4 bytes @ 0xE000EDFC) -- CPU_ReadMem(4 bytes @ 0xE0001000) -- CPU_ReadMem(4 bytes @ 0xE0042004) (0073ms, 64629ms total)
T2554 683:277 JLINK_WriteU32(0xE000EDFC, 0x01000000) -- CPU_WriteMem(4 bytes @ 0xE000EDFC)  returns 0x00 (0001ms, 64630ms total)
T2554 683:278 JLINK_ReadReg(R15 (PC))  returns 0x0800025C (0000ms, 64630ms total)
T2554 683:278 JLINK_ReadReg(XPSR)  returns 0x01000000 (0000ms, 64630ms total)
T2554 683:285 JLINK_ReadMemEx(0x08000188, 0x003C Bytes, ..., Flags = 0x02000000) -- CPU_ReadMem(128 bytes @ 0x08000180) -- Updating C cache (128 bytes @ 0x08000180) -- Read from C cache (60 bytes @ 0x08000188) - Data: DF F8 0C D0 00 F0 0C F9 00 48 00 47 5D 8A 00 08 ...  returns 0x3C (0001ms, 64631ms total)
T2554 683:286 JLINK_ReadMemEx(0x080001C4, 0x003C Bytes, ..., Flags = 0x02000000) -- Read from C cache (60 bytes @ 0x080001C4) - Data: 08 88 4F F0 00 00 80 F3 14 88 62 B6 61 B6 BF F3 ...  returns 0x3C (0000ms, 64631ms total)
T2554 683:286 JLINK_ReadMemEx(0x08000200, 0x003C Bytes, ..., Flags = 0x02000000) -- CPU_ReadMem(64 bytes @ 0x08000200) -- Updating C cache (64 bytes @ 0x08000200) -- Read from C cache (60 bytes @ 0x08000200) - Data: 13 4B 1A 68 1E F0 10 0F 08 BF 20 ED 10 8A 20 E9 ...  returns 0x3C (0001ms, 64632ms total)
T2554 683:287 JLINK_ReadMemEx(0x0800023C, 0x003C Bytes, ..., Flags = 0x02000000) -- CPU_ReadMem(64 bytes @ 0x08000240) -- Updating C cache (64 bytes @ 0x08000240) -- Read from C cache (60 bytes @ 0x0800023C) - Data: 1E F0 10 0F 08 BF B0 EC 10 8A 80 F3 09 88 BF F3 ...  returns 0x3C (0001ms, 64633ms total)
T2554 683:367 JLINK_WriteU32(0xE0001008, 0x00000000)  returns 0x00 (0000ms, 64633ms total)
T2554 683:367 JLINK_WriteU32(0xE000100C, 0x00000000)  returns 0x00 (0000ms, 64633ms total)
T2554 683:367 JLINK_WriteU32(0xE0001010, 0x00000000)  returns 0x00 (0000ms, 64633ms total)
T2554 683:367 JLINK_WriteU32(0xE0001014, 0x00000000)  returns 0x00 (0000ms, 64633ms total)
T2554 683:367 JLINK_WriteU32(0xE0001018, 0x00000000)  returns 0x00 (0000ms, 64633ms total)
T2554 684:086 JLINK_ReadReg(R0)  returns 0x00000000 (0001ms, 64634ms total)
T2554 684:087 JLINK_ReadReg(R1)  returns 0x00000000 (0000ms, 64634ms total)
T2554 684:087 JLINK_ReadReg(R2)  returns 0x00000000 (0000ms, 64634ms total)
T2554 684:087 JLINK_ReadReg(R3)  returns 0x00000000 (0000ms, 64634ms total)
T2554 684:087 JLINK_ReadReg(R4)  returns 0x00000000 (0000ms, 64634ms total)
T2554 684:087 JLINK_ReadReg(R5)  returns 0x00000000 (0000ms, 64634ms total)
T2554 684:087 JLINK_ReadReg(R6)  returns 0x00000000 (0000ms, 64634ms total)
T2554 684:087 JLINK_ReadReg(R7)  returns 0x00000000 (0000ms, 64634ms total)
T2554 684:087 JLINK_ReadReg(R8)  returns 0x00000000 (0000ms, 64634ms total)
T2554 684:087 JLINK_ReadReg(R9)  returns 0x00000000 (0000ms, 64634ms total)
T2554 684:087 JLINK_ReadReg(R10)  returns 0x00000000 (0000ms, 64634ms total)
T2554 684:087 JLINK_ReadReg(R11)  returns 0x00000000 (0000ms, 64634ms total)
T2554 684:087 JLINK_ReadReg(R12)  returns 0x00000000 (0000ms, 64634ms total)
T2554 684:087 JLINK_ReadReg(R13 (SP))  returns 0x2000ACD8 (0000ms, 64634ms total)
T2554 684:087 JLINK_ReadReg(R14)  returns 0xFFFFFFFF (0000ms, 64634ms total)
T2554 684:087 JLINK_ReadReg(R15 (PC))  returns 0x0800025C (0000ms, 64634ms total)
T2554 684:087 JLINK_ReadReg(XPSR)  returns 0x01000000 (0000ms, 64634ms total)
T2554 684:087 JLINK_ReadReg(MSP)  returns 0x2000ACD8 (0001ms, 64635ms total)
T2554 684:088 JLINK_ReadReg(PSP)  returns 0x00000000 (0000ms, 64635ms total)
T2554 684:088 JLINK_ReadReg(CFBP)  returns 0x00000000 (0000ms, 64635ms total)
T2554 684:088 JLINK_ReadReg(FPSCR)  returns 0x00000000 (0005ms, 64640ms total)
T2554 684:093 JLINK_ReadReg(FPS0)  returns 0x00000000 (0000ms, 64640ms total)
T2554 684:093 JLINK_ReadReg(FPS1)  returns 0x00000000 (0000ms, 64640ms total)
T2554 684:093 JLINK_ReadReg(FPS2)  returns 0x00000000 (0000ms, 64640ms total)
T2554 684:093 JLINK_ReadReg(FPS3)  returns 0x00000000 (0000ms, 64640ms total)
T2554 684:093 JLINK_ReadReg(FPS4)  returns 0x00000000 (0000ms, 64640ms total)
T2554 684:093 JLINK_ReadReg(FPS5)  returns 0x00000000 (0000ms, 64640ms total)
T2554 684:093 JLINK_ReadReg(FPS6)  returns 0x00000000 (0000ms, 64640ms total)
T2554 684:093 JLINK_ReadReg(FPS7)  returns 0x00000000 (0000ms, 64640ms total)
T2554 684:094 JLINK_ReadReg(FPS8)  returns 0x00000000 (0000ms, 64641ms total)
T2554 684:094 JLINK_ReadReg(FPS9)  returns 0x00000000 (0000ms, 64641ms total)
T2554 684:094 JLINK_ReadReg(FPS10)  returns 0x00000000 (0000ms, 64641ms total)
T2554 684:094 JLINK_ReadReg(FPS11)  returns 0x00000000 (0000ms, 64641ms total)
T2554 684:094 JLINK_ReadReg(FPS12)  returns 0x00000000 (0000ms, 64641ms total)
T2554 684:094 JLINK_ReadReg(FPS13)  returns 0x00000000 (0000ms, 64641ms total)
T2554 684:094 JLINK_ReadReg(FPS14)  returns 0x00000000 (0000ms, 64641ms total)
T2554 684:094 JLINK_ReadReg(FPS15)  returns 0x00000000 (0000ms, 64641ms total)
T2554 684:094 JLINK_ReadReg(FPS16)  returns 0x00000000 (0000ms, 64641ms total)
T2554 684:094 JLINK_ReadReg(FPS17)  returns 0x00000000 (0000ms, 64641ms total)
T2554 684:094 JLINK_ReadReg(FPS18)  returns 0x00000000 (0000ms, 64641ms total)
T2554 684:094 JLINK_ReadReg(FPS19)  returns 0x00000000 (0000ms, 64641ms total)
T2554 684:094 JLINK_ReadReg(FPS20)  returns 0x00000000 (0000ms, 64641ms total)
T2554 684:094 JLINK_ReadReg(FPS21)  returns 0x00000000 (0000ms, 64641ms total)
T2554 684:094 JLINK_ReadReg(FPS22)  returns 0x00000000 (0000ms, 64641ms total)
T2554 684:094 JLINK_ReadReg(FPS23)  returns 0x00000000 (0000ms, 64641ms total)
T2554 684:094 JLINK_ReadReg(FPS24)  returns 0x00000000 (0000ms, 64641ms total)
T2554 684:094 JLINK_ReadReg(FPS25)  returns 0x00000000 (0000ms, 64641ms total)
T2554 684:094 JLINK_ReadReg(FPS26)  returns 0x00000000 (0000ms, 64641ms total)
T2554 684:094 JLINK_ReadReg(FPS27)  returns 0x00000000 (0000ms, 64641ms total)
T2554 684:094 JLINK_ReadReg(FPS28)  returns 0x00000000 (0000ms, 64641ms total)
T2554 684:094 JLINK_ReadReg(FPS29)  returns 0x00000000 (0000ms, 64641ms total)
T2554 684:094 JLINK_ReadReg(FPS30)  returns 0x00000000 (0000ms, 64641ms total)
T2554 684:094 JLINK_ReadReg(FPS31)  returns 0x00000000 (0000ms, 64641ms total)
T0F18 684:117 JLINK_ReadMemEx(0x0800025C, 0x0002 Bytes, ..., Flags = 0x02000000) -- Read from C cache (2 bytes @ 0x0800025C) - Data: 06 48  returns 0x02 (0000ms, 64641ms total)
T0F18 684:117 JLINK_SetBPEx(Addr = 0x08008A5C, Type = 0xFFFFFFF2)  returns 0x00000001 (0000ms, 64641ms total)
T0F18 684:117 JLINK_ReadMemU32(0xE0001004, 0x0001 Items, ...) - Data: 00 00 00 00  returns 0x01 (0000ms, 64641ms total)
T0F18 684:117 JLINK_WriteU32(0xE0001004, 0x000003FF)  returns 0x00 (0000ms, 64641ms total)
T0F18 684:117 JLINK_WriteU32(0xE0001000, 0x00410A1F)  returns 0x00 (0000ms, 64641ms total)
T0F18 684:117 JLINK_WriteU32(0xE0000E80, 0x0001000F)  returns 0x00 (0000ms, 64641ms total)
T0F18 684:117 JLINK_SWO_Control(JLINKARM_SWO_CMD_GET_NUM_BYTES, ...)  returns 0x00 (0000ms, 64641ms total)
T0F18 684:117 JLINK_Go() -- CPU_WriteMem(4 bytes @ 0xE0002000) -- CPU_WriteMem(4 bytes @ 0xE0001000) -- CPU_ReadMem(4 bytes @ 0xE0001000) -- CPU_WriteMem(4 bytes @ 0xE0000E80) -- CPU_WriteMem(4 bytes @ 0xE0001008) -- CPU_WriteMem(4 bytes @ 0xE000100C) -- CPU_WriteMem(4 bytes @ 0xE0001010) -- CPU_WriteMem(4 bytes @ 0xE0001014) -- CPU_WriteMem(4 bytes @ 0xE0001018) -- CPU_WriteMem(4 bytes @ 0xE0002008) -- CPU_WriteMem(4 bytes @ 0xE000200C) -- CPU_WriteMem(4 bytes @ 0xE0002010)
 -- CPU_WriteMem(4 bytes @ 0xE0002014) -- CPU_WriteMem(4 bytes @ 0xE0002018) -- CPU_WriteMem(4 bytes @ 0xE000201C) -- CPU_WriteMem(4 bytes @ 0xE0001004) (0007ms, 64648ms total)
T0F18 684:124 JLINK_WriteU32(0xE0001000, 0x00010A1F) -- CPU is running -- CPU_WriteMem(4 bytes @ 0xE0001000)  returns 0x00 (0001ms, 64649ms total)
T0F18 684:226 JLINK_SWO_Read(..., Offset = 0x00, NumBytes = 0x400000) - Data:  NumBytesRead = 0x00 (0000ms, 64649ms total)
T0F18 684:228 JLINK_SWO_Control(JLINKARM_SWO_CMD_FLUSH, ...)  returns 0x00 (0000ms, 64649ms total)
T0F18 684:228 JLINK_IsHalted()  returns TRUE (0002ms, 64651ms total)
T0F18 684:230 JLINK_Halt()  returns 0x00 (0000ms, 64649ms total)
T0F18 684:230 JLINK_IsHalted()  returns TRUE (0000ms, 64649ms total)
T0F18 684:230 JLINK_IsHalted()  returns TRUE (0001ms, 64650ms total)
T0F18 684:231 JLINK_IsHalted()  returns TRUE (0000ms, 64649ms total)
T0F18 684:231 JLINK_ReadReg(R15 (PC))  returns 0x08008A5C (0000ms, 64649ms total)
T0F18 684:231 JLINK_ReadReg(XPSR)  returns 0x61000000 (0000ms, 64649ms total)
T0F18 684:231 JLINK_SWO_Read(..., Offset = 0x00, NumBytes = 0x400000) - Data:  NumBytesRead = 0x00 (0000ms, 64649ms total)
T0F18 684:233 JLINK_SWO_Control(JLINKARM_SWO_CMD_FLUSH, ...)  returns 0x00 (0000ms, 64649ms total)
T0F18 684:233 JLINK_ClrBPEx(BPHandle = 0x00000001)  returns 0x00 (0000ms, 64649ms total)
T0F18 684:233 JLINK_ReadMemU32(0xE000ED30, 0x0001 Items, ...) -- CPU_ReadMem(4 bytes @ 0xE000ED30) - Data: 02 00 00 00  returns 0x01 (0001ms, 64650ms total)
T0F18 684:234 JLINK_ReadMemU32(0xE0001028, 0x0001 Items, ...) -- CPU_ReadMem(4 bytes @ 0xE0001028) - Data: 00 00 00 00  returns 0x01 (0002ms, 64652ms total)
T0F18 684:236 JLINK_ReadMemU32(0xE0001038, 0x0001 Items, ...) -- CPU_ReadMem(4 bytes @ 0xE0001038) - Data: 00 02 00 00  returns 0x01 (0000ms, 64652ms total)
T0F18 684:236 JLINK_ReadMemU32(0xE0001048, 0x0001 Items, ...) -- CPU_ReadMem(4 bytes @ 0xE0001048) - Data: 00 00 00 00  returns 0x01 (0001ms, 64653ms total)
T0F18 684:237 JLINK_ReadMemU32(0xE0001058, 0x0001 Items, ...) -- CPU_ReadMem(4 bytes @ 0xE0001058) - Data: 00 00 00 00  returns 0x01 (0000ms, 64653ms total)
T0F18 684:237 JLINK_ReadReg(R0)  returns 0x08008A5D (0000ms, 64653ms total)
T0F18 684:237 JLINK_ReadReg(R1)  returns 0x2000ACD8 (0000ms, 64653ms total)
T0F18 684:237 JLINK_ReadReg(R2)  returns 0x00000000 (0000ms, 64653ms total)
T0F18 684:237 JLINK_ReadReg(R3)  returns 0x08002745 (0000ms, 64653ms total)
T0F18 684:237 JLINK_ReadReg(R4)  returns 0x08011ECC (0001ms, 64654ms total)
T0F18 684:238 JLINK_ReadReg(R5)  returns 0x08011ECC (0000ms, 64654ms total)
T0F18 684:238 JLINK_ReadReg(R6)  returns 0x00000000 (0000ms, 64654ms total)
T0F18 684:238 JLINK_ReadReg(R7)  returns 0x00000000 (0000ms, 64654ms total)
T0F18 684:238 JLINK_ReadReg(R8)  returns 0x00000000 (0000ms, 64654ms total)
T0F18 684:238 JLINK_ReadReg(R9)  returns 0x00000000 (0000ms, 64654ms total)
T0F18 684:238 JLINK_ReadReg(R10)  returns 0x00000000 (0000ms, 64654ms total)
T0F18 684:238 JLINK_ReadReg(R11)  returns 0x00000000 (0000ms, 64654ms total)
T0F18 684:238 JLINK_ReadReg(R12)  returns 0x00000000 (0000ms, 64654ms total)
T0F18 684:238 JLINK_ReadReg(R13 (SP))  returns 0x2000ACD8 (0000ms, 64654ms total)
T0F18 684:238 JLINK_ReadReg(R14)  returns 0x080003C5 (0000ms, 64654ms total)
T0F18 684:238 JLINK_ReadReg(R15 (PC))  returns 0x08008A5C (0000ms, 64654ms total)
T0F18 684:238 JLINK_ReadReg(XPSR)  returns 0x61000000 (0000ms, 64654ms total)
T0F18 684:238 JLINK_ReadReg(MSP)  returns 0x2000ACD8 (0000ms, 64654ms total)
T0F18 684:238 JLINK_ReadReg(PSP)  returns 0x00000000 (0000ms, 64654ms total)
T0F18 684:238 JLINK_ReadReg(CFBP)  returns 0x00000000 (0001ms, 64655ms total)
T0F18 684:239 JLINK_ReadReg(FPSCR)  returns 0x00000000 (0004ms, 64659ms total)
T0F18 684:243 JLINK_ReadReg(FPS0)  returns 0x00000000 (0000ms, 64659ms total)
T0F18 684:243 JLINK_ReadReg(FPS1)  returns 0x00000000 (0000ms, 64659ms total)
T0F18 684:243 JLINK_ReadReg(FPS2)  returns 0x00000000 (0000ms, 64659ms total)
T0F18 684:243 JLINK_ReadReg(FPS3)  returns 0x00000000 (0000ms, 64659ms total)
T0F18 684:243 JLINK_ReadReg(FPS4)  returns 0x00000000 (0000ms, 64659ms total)
T0F18 684:243 JLINK_ReadReg(FPS5)  returns 0x00000000 (0000ms, 64659ms total)
T0F18 684:243 JLINK_ReadReg(FPS6)  returns 0x00000000 (0000ms, 64659ms total)
T0F18 684:243 JLINK_ReadReg(FPS7)  returns 0x00000000 (0000ms, 64659ms total)
T0F18 684:243 JLINK_ReadReg(FPS8)  returns 0x00000000 (0000ms, 64659ms total)
T0F18 684:243 JLINK_ReadReg(FPS9)  returns 0x00000000 (0000ms, 64659ms total)
T0F18 684:243 JLINK_ReadReg(FPS10)  returns 0x00000000 (0000ms, 64659ms total)
T0F18 684:243 JLINK_ReadReg(FPS11)  returns 0x00000000 (0000ms, 64659ms total)
T0F18 684:243 JLINK_ReadReg(FPS12)  returns 0x00000000 (0000ms, 64659ms total)
T0F18 684:243 JLINK_ReadReg(FPS13)  returns 0x00000000 (0000ms, 64659ms total)
T0F18 684:243 JLINK_ReadReg(FPS14)  returns 0x00000000 (0000ms, 64659ms total)
T0F18 684:243 JLINK_ReadReg(FPS15)  returns 0x00000000 (0000ms, 64659ms total)
T0F18 684:243 JLINK_ReadReg(FPS16)  returns 0x00000000 (0000ms, 64659ms total)
T0F18 684:243 JLINK_ReadReg(FPS17)  returns 0x00000000 (0000ms, 64659ms total)
T0F18 684:243 JLINK_ReadReg(FPS18)  returns 0x00000000 (0000ms, 64659ms total)
T0F18 684:243 JLINK_ReadReg(FPS19)  returns 0x00000000 (0000ms, 64659ms total)
T0F18 684:243 JLINK_ReadReg(FPS20)  returns 0x00000000 (0000ms, 64659ms total)
T0F18 684:243 JLINK_ReadReg(FPS21)  returns 0x00000000 (0000ms, 64659ms total)
T0F18 684:243 JLINK_ReadReg(FPS22)  returns 0x00000000 (0000ms, 64659ms total)
T0F18 684:243 JLINK_ReadReg(FPS23)  returns 0x00000000 (0000ms, 64659ms total)
T0F18 684:243 JLINK_ReadReg(FPS24)  returns 0x00000000 (0000ms, 64659ms total)
T0F18 684:243 JLINK_ReadReg(FPS25)  returns 0x00000000 (0000ms, 64659ms total)
T0F18 684:243 JLINK_ReadReg(FPS26)  returns 0x00000000 (0000ms, 64659ms total)
T0F18 684:243 JLINK_ReadReg(FPS27)  returns 0x00000000 (0000ms, 64659ms total)
T0F18 684:243 JLINK_ReadReg(FPS28)  returns 0x00000000 (0000ms, 64659ms total)
T0F18 684:243 JLINK_ReadReg(FPS29)  returns 0x00000000 (0000ms, 64659ms total)
T0F18 684:243 JLINK_ReadReg(FPS30)  returns 0x00000000 (0000ms, 64659ms total)
T0F18 684:243 JLINK_ReadReg(FPS31)  returns 0x00000000 (0000ms, 64659ms total)
T2554 684:244 JLINK_ReadMemU32(0xE0001004, 0x0001 Items, ...) -- CPU_ReadMem(4 bytes @ 0xE0001004) - Data: 6B 0E 01 00  returns 0x01 (0001ms, 64660ms total)
T2554 684:250 JLINK_ReadMemEx(0x0800895C, 0x003C Bytes, ..., Flags = 0x02000000) -- CPU_ReadMem(128 bytes @ 0x08008940) -- Updating C cache (128 bytes @ 0x08008940) -- Read from C cache (60 bytes @ 0x0800895C) - Data: 00 27 00 BF 0B 48 00 68 00 F5 80 50 40 69 00 F0 ...  returns 0x3C (0002ms, 64662ms total)
T2554 684:252 JLINK_ReadMemEx(0x08008998, 0x003C Bytes, ..., Flags = 0x02000000) -- CPU_ReadMem(64 bytes @ 0x080089C0) -- Updating C cache (64 bytes @ 0x080089C0) -- Read from C cache (60 bytes @ 0x08008998) - Data: 01 F4 7F 42 40 EA 02 20 01 F4 7F 02 40 EA 12 20 ...  returns 0x3C (0002ms, 64664ms total)
T2554 684:255 JLINK_ReadMemEx(0x080089D4, 0x003C Bytes, ..., Flags = 0x02000000) -- CPU_ReadMem(64 bytes @ 0x08008A00) -- Updating C cache (64 bytes @ 0x08008A00) -- Read from C cache (60 bytes @ 0x080089D4) - Data: 17 A0 F9 F7 81 FE 00 BF 00 BF 00 BF 00 BF 02 F0 ...  returns 0x3C (0001ms, 64665ms total)
T2554 684:256 JLINK_ReadMemEx(0x08008A5A, 0x0002 Bytes, ..., Flags = 0x02000000) -- CPU_ReadMem(64 bytes @ 0x08008A40) -- Updating C cache (64 bytes @ 0x08008A40) -- Read from C cache (2 bytes @ 0x08008A5A) - Data: 0A 00  returns 0x02 (0001ms, 64666ms total)
T2554 684:257 JLINK_ReadMemEx(0x08008A5C, 0x003C Bytes, ..., Flags = 0x02000000) -- CPU_ReadMem(64 bytes @ 0x08008A80) -- Updating C cache (64 bytes @ 0x08008A80) -- Read from C cache (60 bytes @ 0x08008A5C) - Data: 86 B0 F8 F7 85 FE F9 F7 37 FD F9 F7 57 FC F9 F7 ...  returns 0x3C (0000ms, 64666ms total)
T2554 689:085 JLINK_SetResetType(JLINKARM_CM3_RESET_TYPE_NORMAL)  returns JLINKARM_CM3_RESET_TYPE_NORMAL (0000ms, 64666ms total)
T2554 689:085 JLINK_Reset() -- CPU_WriteMem(4 bytes @ 0xE000EDF0) -- CPU_WriteMem(4 bytes @ 0xE000EDFC)Reset: Halt core after reset via DEMCR.VC_CORERESET. >0x35 TIF>Reset: Reset device via AIRCR.SYSRESETREQ. -- CPU_WriteMem(4 bytes @ 0xE000ED0C) >0x0D TIF> >0x28 TIF> -- CPU_ReadMem(4 bytes @ 0xE000EDF0) -- CPU_ReadMem(4 bytes @ 0xE000EDF0) -- CPU_WriteMem(4 bytes @ 0xE000EDF0) -- CPU_WriteMem(4 bytes @ 0xE000EDFC) -- CPU_ReadMem(4 bytes @ 0xE000EDF0) -- CPU_WriteMem(4 bytes @ 0xE0002000)
 -- CPU_ReadMem(4 bytes @ 0xE000EDFC) -- CPU_ReadMem(4 bytes @ 0xE0001000) -- CPU_ReadMem(4 bytes @ 0xE0042004) (0069ms, 64735ms total)
T2554 689:155 JLINK_WriteU32(0xE000EDFC, 0x01000000) -- CPU_WriteMem(4 bytes @ 0xE000EDFC)  returns 0x00 (0001ms, 64736ms total)
T2554 689:156 JLINK_ReadReg(R15 (PC))  returns 0x0800025C (0000ms, 64736ms total)
T2554 689:156 JLINK_ReadReg(XPSR)  returns 0x01000000 (0000ms, 64736ms total)
T2554 689:162 JLINK_ReadReg(R0)  returns 0x00000000 (0000ms, 64736ms total)
T2554 689:162 JLINK_ReadReg(R1)  returns 0x00000000 (0000ms, 64736ms total)
T2554 689:162 JLINK_ReadReg(R2)  returns 0x00000000 (0000ms, 64736ms total)
T2554 689:162 JLINK_ReadReg(R3)  returns 0x00000000 (0000ms, 64736ms total)
T2554 689:162 JLINK_ReadReg(R4)  returns 0x00000000 (0000ms, 64736ms total)
T2554 689:162 JLINK_ReadReg(R5)  returns 0x00000000 (0000ms, 64736ms total)
T2554 689:162 JLINK_ReadReg(R6)  returns 0x00000000 (0000ms, 64736ms total)
T2554 689:162 JLINK_ReadReg(R7)  returns 0x00000000 (0000ms, 64736ms total)
T2554 689:162 JLINK_ReadReg(R8)  returns 0x00000000 (0000ms, 64736ms total)
T2554 689:162 JLINK_ReadReg(R9)  returns 0x00000000 (0000ms, 64736ms total)
T2554 689:162 JLINK_ReadReg(R10)  returns 0x00000000 (0000ms, 64736ms total)
T2554 689:162 JLINK_ReadReg(R11)  returns 0x00000000 (0000ms, 64736ms total)
T2554 689:162 JLINK_ReadReg(R12)  returns 0x00000000 (0001ms, 64737ms total)
T2554 689:163 JLINK_ReadReg(R13 (SP))  returns 0x2000ACD8 (0000ms, 64737ms total)
T2554 689:163 JLINK_ReadReg(R14)  returns 0xFFFFFFFF (0000ms, 64737ms total)
T2554 689:163 JLINK_ReadReg(R15 (PC))  returns 0x0800025C (0000ms, 64737ms total)
T2554 689:163 JLINK_ReadReg(XPSR)  returns 0x01000000 (0000ms, 64737ms total)
T2554 689:163 JLINK_ReadReg(MSP)  returns 0x2000ACD8 (0000ms, 64737ms total)
T2554 689:163 JLINK_ReadReg(PSP)  returns 0x00000000 (0000ms, 64737ms total)
T2554 689:163 JLINK_ReadReg(CFBP)  returns 0x00000000 (0000ms, 64737ms total)
T2554 689:163 JLINK_ReadReg(FPSCR)  returns 0x00000000 (0004ms, 64741ms total)
T2554 689:167 JLINK_ReadReg(FPS0)  returns 0x00000000 (0000ms, 64741ms total)
T2554 689:167 JLINK_ReadReg(FPS1)  returns 0x00000000 (0000ms, 64741ms total)
T2554 689:167 JLINK_ReadReg(FPS2)  returns 0x00000000 (0000ms, 64741ms total)
T2554 689:167 JLINK_ReadReg(FPS3)  returns 0x00000000 (0000ms, 64741ms total)
T2554 689:167 JLINK_ReadReg(FPS4)  returns 0x00000000 (0000ms, 64741ms total)
T2554 689:167 JLINK_ReadReg(FPS5)  returns 0x00000000 (0000ms, 64741ms total)
T2554 689:167 JLINK_ReadReg(FPS6)  returns 0x00000000 (0000ms, 64741ms total)
T2554 689:167 JLINK_ReadReg(FPS7)  returns 0x00000000 (0000ms, 64741ms total)
T2554 689:167 JLINK_ReadReg(FPS8)  returns 0x00000000 (0000ms, 64741ms total)
T2554 689:167 JLINK_ReadReg(FPS9)  returns 0x00000000 (0000ms, 64741ms total)
T2554 689:167 JLINK_ReadReg(FPS10)  returns 0x00000000 (0000ms, 64741ms total)
T2554 689:167 JLINK_ReadReg(FPS11)  returns 0x00000000 (0000ms, 64741ms total)
T2554 689:167 JLINK_ReadReg(FPS12)  returns 0x00000000 (0000ms, 64741ms total)
T2554 689:167 JLINK_ReadReg(FPS13)  returns 0x00000000 (0000ms, 64741ms total)
T2554 689:167 JLINK_ReadReg(FPS14)  returns 0x00000000 (0000ms, 64741ms total)
T2554 689:167 JLINK_ReadReg(FPS15)  returns 0x00000000 (0000ms, 64741ms total)
T2554 689:167 JLINK_ReadReg(FPS16)  returns 0x00000000 (0000ms, 64741ms total)
T2554 689:167 JLINK_ReadReg(FPS17)  returns 0x00000000 (0000ms, 64741ms total)
T2554 689:167 JLINK_ReadReg(FPS18)  returns 0x00000000 (0000ms, 64741ms total)
T2554 689:167 JLINK_ReadReg(FPS19)  returns 0x00000000 (0000ms, 64741ms total)
T2554 689:167 JLINK_ReadReg(FPS20)  returns 0x00000000 (0000ms, 64741ms total)
T2554 689:167 JLINK_ReadReg(FPS21)  returns 0x00000000 (0000ms, 64741ms total)
T2554 689:167 JLINK_ReadReg(FPS22)  returns 0x00000000 (0000ms, 64741ms total)
T2554 689:167 JLINK_ReadReg(FPS23)  returns 0x00000000 (0000ms, 64741ms total)
T2554 689:167 JLINK_ReadReg(FPS24)  returns 0x00000000 (0000ms, 64741ms total)
T2554 689:167 JLINK_ReadReg(FPS25)  returns 0x00000000 (0000ms, 64741ms total)
T2554 689:167 JLINK_ReadReg(FPS26)  returns 0x00000000 (0000ms, 64741ms total)
T2554 689:167 JLINK_ReadReg(FPS27)  returns 0x00000000 (0000ms, 64741ms total)
T2554 689:167 JLINK_ReadReg(FPS28)  returns 0x00000000 (0000ms, 64741ms total)
T2554 689:167 JLINK_ReadReg(FPS29)  returns 0x00000000 (0000ms, 64741ms total)
T2554 689:167 JLINK_ReadReg(FPS30)  returns 0x00000000 (0000ms, 64741ms total)
T2554 689:167 JLINK_ReadReg(FPS31)  returns 0x00000000 (0000ms, 64741ms total)
T2554 689:167 JLINK_ReadMemU32(0xE0001004, 0x0001 Items, ...) - Data: 00 00 00 00  returns 0x01 (0000ms, 64741ms total)
T2554 689:170 JLINK_ReadMemEx(0x08000188, 0x003C Bytes, ..., Flags = 0x02000000) -- CPU_ReadMem(128 bytes @ 0x08000180) -- Updating C cache (128 bytes @ 0x08000180) -- Read from C cache (60 bytes @ 0x08000188) - Data: DF F8 0C D0 00 F0 0C F9 00 48 00 47 5D 8A 00 08 ...  returns 0x3C (0001ms, 64742ms total)
T2554 689:172 JLINK_ReadMemEx(0x080001C4, 0x003C Bytes, ..., Flags = 0x02000000) -- Read from C cache (60 bytes @ 0x080001C4) - Data: 08 88 4F F0 00 00 80 F3 14 88 62 B6 61 B6 BF F3 ...  returns 0x3C (0000ms, 64742ms total)
T2554 689:172 JLINK_ReadMemEx(0x08000200, 0x003C Bytes, ..., Flags = 0x02000000) -- CPU_ReadMem(64 bytes @ 0x08000200) -- Updating C cache (64 bytes @ 0x08000200) -- Read from C cache (60 bytes @ 0x08000200) - Data: 13 4B 1A 68 1E F0 10 0F 08 BF 20 ED 10 8A 20 E9 ...  returns 0x3C (0001ms, 64743ms total)
T2554 689:173 JLINK_ReadMemEx(0x0800023C, 0x003C Bytes, ..., Flags = 0x02000000) -- CPU_ReadMem(64 bytes @ 0x08000240) -- Updating C cache (64 bytes @ 0x08000240) -- Read from C cache (60 bytes @ 0x0800023C) - Data: 1E F0 10 0F 08 BF B0 EC 10 8A 80 F3 09 88 BF F3 ...  returns 0x3C (0001ms, 64744ms total)
T2554 689:253 JLINK_WriteU32(0xE0001008, 0x00000000)  returns 0x00 (0000ms, 64744ms total)
T2554 689:253 JLINK_WriteU32(0xE000100C, 0x00000000)  returns 0x00 (0000ms, 64744ms total)
T2554 689:253 JLINK_WriteU32(0xE0001010, 0x00000000)  returns 0x00 (0000ms, 64744ms total)
T2554 689:253 JLINK_WriteU32(0xE0001014, 0x00000000)  returns 0x00 (0000ms, 64744ms total)
T2554 689:253 JLINK_WriteU32(0xE0001018, 0x00000000)  returns 0x00 (0000ms, 64744ms total)
T0F18 689:767 JLINK_ReadMemEx(0x0800025C, 0x0002 Bytes, ..., Flags = 0x02000000) -- Read from C cache (2 bytes @ 0x0800025C) - Data: 06 48  returns 0x02 (0000ms, 64744ms total)
T0F18 689:767 JLINK_ReadMemU32(0xE0001004, 0x0001 Items, ...) - Data: 00 00 00 00  returns 0x01 (0000ms, 64744ms total)
T0F18 689:767 JLINK_WriteU32(0xE0001004, 0x000003FF)  returns 0x00 (0000ms, 64744ms total)
T0F18 689:767 JLINK_WriteU32(0xE0001000, 0x00410A1F)  returns 0x00 (0000ms, 64744ms total)
T0F18 689:767 JLINK_WriteU32(0xE0000E80, 0x0001000F)  returns 0x00 (0000ms, 64744ms total)
T0F18 689:767 JLINK_SWO_Control(JLINKARM_SWO_CMD_GET_NUM_BYTES, ...)  returns 0x00 (0000ms, 64744ms total)
T0F18 689:767 JLINK_Go() -- CPU_WriteMem(4 bytes @ 0xE0001000) -- CPU_ReadMem(4 bytes @ 0xE0001000) -- CPU_WriteMem(4 bytes @ 0xE0000E80) -- CPU_WriteMem(4 bytes @ 0xE0001008) -- CPU_WriteMem(4 bytes @ 0xE000100C) -- CPU_WriteMem(4 bytes @ 0xE0001010) -- CPU_WriteMem(4 bytes @ 0xE0001014) -- CPU_WriteMem(4 bytes @ 0xE0001018) -- CPU_WriteMem(4 bytes @ 0xE0002008) -- CPU_WriteMem(4 bytes @ 0xE000200C) -- CPU_WriteMem(4 bytes @ 0xE0002010) -- CPU_WriteMem(4 bytes @ 0xE0002014)
 -- CPU_WriteMem(4 bytes @ 0xE0002018) -- CPU_WriteMem(4 bytes @ 0xE000201C) -- CPU_WriteMem(4 bytes @ 0xE0001004) (0006ms, 64750ms total)
T0F18 689:773 JLINK_WriteU32(0xE0001000, 0x00010A1F) -- CPU is running -- CPU_WriteMem(4 bytes @ 0xE0001000)  returns 0x00 (0000ms, 64750ms total)
T0F18 689:874 JLINK_SWO_Read(..., Offset = 0x00, NumBytes = 0x400000) - Data: 0E 00 30 C0 07 0E 29 10 C0 8F 2B 0E 29 20 C0 9F ...  NumBytesRead = 0xD2C (0000ms, 64750ms total)
T0F18 689:876 JLINK_SWO_Control(JLINKARM_SWO_CMD_FLUSH, ...)  returns 0x00 (0000ms, 64750ms total)
T0F18 689:876 JLINK_IsHalted()  returns FALSE (0001ms, 64751ms total)
T0F18 689:980 JLINK_SWO_Read(..., Offset = 0x00, NumBytes = 0x400000) - Data: 0E 29 10 C0 89 CA 09 0E 29 20 C0 E7 01 0E 00 30 ...  NumBytesRead = 0xE58 (0000ms, 64750ms total)
T0F18 689:983 JLINK_SWO_Control(JLINKARM_SWO_CMD_FLUSH, ...)  returns 0x00 (0000ms, 64751ms total)
T0F18 689:983 JLINK_IsHalted()  returns FALSE (0000ms, 64751ms total)
T0F18 690:085 JLINK_SWO_Read(..., Offset = 0x00, NumBytes = 0x400000) - Data: 0E 29 10 C0 89 CA 09 0E 29 20 C0 E7 01 0E 00 30 ...  NumBytesRead = 0xDAE (0000ms, 64751ms total)
T0F18 690:087 JLINK_SWO_Control(JLINKARM_SWO_CMD_FLUSH, ...)  returns 0x00 (0000ms, 64751ms total)
T0F18 690:087 JLINK_IsHalted()  returns FALSE (0000ms, 64751ms total)
T0F18 690:189 JLINK_SWO_Read(..., Offset = 0x00, NumBytes = 0x400000) - Data: 0E 29 10 C0 89 CA 09 0E 29 20 C0 E8 01 0E 00 30 ...  NumBytesRead = 0xDF8 (0000ms, 64751ms total)
T0F18 690:191 JLINK_SWO_Control(JLINKARM_SWO_CMD_FLUSH, ...)  returns 0x00 (0000ms, 64751ms total)
T0F18 690:191 JLINK_IsHalted()  returns FALSE (0000ms, 64751ms total)
T0F18 690:293 JLINK_SWO_Read(..., Offset = 0x00, NumBytes = 0x400000) - Data: 0E 29 10 C0 89 CA 09 0E 29 20 C0 E8 01 0E 00 30 ...  NumBytesRead = 0xDCA (0000ms, 64751ms total)
T0F18 690:295 JLINK_SWO_Control(JLINKARM_SWO_CMD_FLUSH, ...)  returns 0x00 (0000ms, 64751ms total)
T0F18 690:295 JLINK_ReadMemU32(0xE0001004, 0x0001 Items, ...) -- CPU_ReadMem(4 bytes @ 0xE0001004) - Data: CF F0 33 05  returns 0x01 (0001ms, 64752ms total)
T0F18 690:298 JLINK_IsHalted()  returns FALSE (0001ms, 64753ms total)
T0F18 690:399 JLINK_SWO_Read(..., Offset = 0x00, NumBytes = 0x400000) - Data: 0E 29 10 C0 89 CA 09 0E 29 20 C0 E8 01 0E 00 30 ...  NumBytesRead = 0xE36 (0000ms, 64752ms total)
T0F18 690:401 JLINK_SWO_Control(JLINKARM_SWO_CMD_FLUSH, ...)  returns 0x00 (0000ms, 64752ms total)
T0F18 690:401 JLINK_IsHalted()  returns FALSE (0001ms, 64753ms total)
T0F18 690:503 JLINK_SWO_Read(..., Offset = 0x00, NumBytes = 0x400000) - Data: 0E 29 10 C0 89 CA 09 0E 29 20 C0 E8 01 0E 00 30 ...  NumBytesRead = 0xDD0 (0000ms, 64752ms total)
T0F18 690:505 JLINK_SWO_Control(JLINKARM_SWO_CMD_FLUSH, ...)  returns 0x00 (0000ms, 64752ms total)
T0F18 690:505 JLINK_IsHalted()  returns FALSE (0001ms, 64753ms total)
T0F18 690:607 JLINK_SWO_Read(..., Offset = 0x00, NumBytes = 0x400000) - Data: 0E 29 10 C0 89 CA 09 0E 29 20 C0 E8 01 0E 00 30 ...  NumBytesRead = 0xDF8 (0000ms, 64752ms total)
T0F18 690:609 JLINK_SWO_Control(JLINKARM_SWO_CMD_FLUSH, ...)  returns 0x00 (0000ms, 64752ms total)
T0F18 690:609 JLINK_IsHalted()  returns FALSE (0001ms, 64753ms total)
T0F18 690:712 JLINK_SWO_Read(..., Offset = 0x00, NumBytes = 0x400000) - Data: 0E 29 10 C0 89 CA 09 0E 29 20 C0 E7 01 0E 00 30 ...  NumBytesRead = 0xE14 (0000ms, 64752ms total)
T0F18 690:715 JLINK_SWO_Control(JLINKARM_SWO_CMD_FLUSH, ...)  returns 0x00 (0000ms, 64752ms total)
T0F18 690:715 JLINK_IsHalted()  returns FALSE (0001ms, 64753ms total)
T0F18 690:816 JLINK_SWO_Read(..., Offset = 0x00, NumBytes = 0x400000) - Data: 0E 29 10 C0 89 CA 09 0E 29 20 C0 E7 01 0E 00 30 ...  NumBytesRead = 0xDA8 (0000ms, 64752ms total)
T0F18 690:818 JLINK_SWO_Control(JLINKARM_SWO_CMD_FLUSH, ...)  returns 0x00 (0000ms, 64752ms total)
T0F18 690:818 JLINK_ReadMemU32(0xE0001004, 0x0001 Items, ...) - Data: CF F0 33 05  returns 0x01 (0000ms, 64752ms total)
T0F18 690:820 JLINK_IsHalted()  returns FALSE (0001ms, 64753ms total)
T0F18 690:922 JLINK_SWO_Read(..., Offset = 0x00, NumBytes = 0x400000) - Data: 0E 29 10 C0 88 CA 09 0E 29 20 C0 E7 01 0E 00 30 ...  NumBytesRead = 0xE36 (0000ms, 64752ms total)
T0F18 690:925 JLINK_SWO_Control(JLINKARM_SWO_CMD_FLUSH, ...)  returns 0x00 (0000ms, 64752ms total)
T0F18 690:925 JLINK_IsHalted()  returns FALSE (0000ms, 64752ms total)
T0F18 691:026 JLINK_SWO_Read(..., Offset = 0x00, NumBytes = 0x400000) - Data: 0E 29 10 C0 89 CA 09 0E 29 20 C0 E7 01 0E 00 30 ...  NumBytesRead = 0xDB4 (0000ms, 64752ms total)
T0F18 691:028 JLINK_SWO_Control(JLINKARM_SWO_CMD_FLUSH, ...)  returns 0x00 (0000ms, 64752ms total)
T0F18 691:028 JLINK_IsHalted()  returns FALSE (0001ms, 64753ms total)
T0F18 691:130 JLINK_SWO_Read(..., Offset = 0x00, NumBytes = 0x400000) - Data: 0E 29 10 C0 8C CA 09 0E 29 20 C0 E8 01 0E 00 30 ...  NumBytesRead = 0xDD0 (0000ms, 64752ms total)
T0F18 691:132 JLINK_SWO_Control(JLINKARM_SWO_CMD_FLUSH, ...)  returns 0x00 (0000ms, 64752ms total)
T0F18 691:132 JLINK_IsHalted()  returns FALSE (0001ms, 64753ms total)
T0F18 691:234 JLINK_SWO_Read(..., Offset = 0x00, NumBytes = 0x400000) - Data: 0E 29 10 C0 89 CA 09 0E 29 20 C0 E8 01 0E 00 30 ...  NumBytesRead = 0xDF2 (0000ms, 64752ms total)
T0F18 691:236 JLINK_SWO_Control(JLINKARM_SWO_CMD_FLUSH, ...)  returns 0x00 (0000ms, 64752ms total)
T0F18 691:236 JLINK_IsHalted()  returns FALSE (0000ms, 64752ms total)
T0F18 691:337 JLINK_SWO_Read(..., Offset = 0x00, NumBytes = 0x400000) - Data: 0E 29 10 C0 88 CA 09 0E 29 20 C0 E7 01 0E 00 30 ...  NumBytesRead = 0xDCA (0000ms, 64752ms total)
T0F18 691:338 JLINK_SWO_Control(JLINKARM_SWO_CMD_FLUSH, ...)  returns 0x00 (0000ms, 64752ms total)
T0F18 691:338 JLINK_ReadMemU32(0xE0001004, 0x0001 Items, ...) - Data: CF F0 33 05  returns 0x01 (0000ms, 64752ms total)
T0F18 691:340 JLINK_IsHalted()  returns FALSE (0002ms, 64754ms total)
T0F18 691:443 JLINK_SWO_Read(..., Offset = 0x00, NumBytes = 0x400000) - Data: 0E 29 10 C0 89 CA 09 0E 29 20 C0 E8 01 0E 00 30 ...  NumBytesRead = 0x11F2 (0000ms, 64752ms total)
T0F18 691:445 JLINK_SWO_Control(JLINKARM_SWO_CMD_FLUSH, ...)  returns 0x00 (0000ms, 64752ms total)
T0F18 691:448 JLINK_IsHalted()  returns FALSE (0001ms, 64753ms total)
T0F18 691:550 JLINK_SWO_Read(..., Offset = 0x00, NumBytes = 0x400000) - Data: 0E 29 10 C0 F5 C9 09 0E 29 20 C0 F7 01 0E 00 30 ...  NumBytesRead = 0xE64 (0000ms, 64752ms total)
T0F18 691:552 JLINK_SWO_Control(JLINKARM_SWO_CMD_FLUSH, ...)  returns 0x00 (0000ms, 64752ms total)
T0F18 691:552 JLINK_IsHalted()  returns FALSE (0001ms, 64753ms total)
T0F18 691:654 JLINK_SWO_Read(..., Offset = 0x00, NumBytes = 0x400000) - Data: 0E 0F 10 C0 D1 53 0E 0F 20 C0 6F 0E 00 30 C0 07 ...  NumBytesRead = 0xE1E (0000ms, 64752ms total)
T0F18 691:656 JLINK_SWO_Control(JLINKARM_SWO_CMD_FLUSH, ...)  returns 0x00 (0000ms, 64752ms total)
T0F18 691:656 JLINK_IsHalted()  returns FALSE (0000ms, 64752ms total)
T0F18 691:757 JLINK_SWO_Read(..., Offset = 0x00, NumBytes = 0x400000) - Data: 0E 29 10 C0 F5 C9 09 0E 29 20 C0 F7 01 0E 00 30 ...  NumBytesRead = 0xDAE (0000ms, 64752ms total)
T0F18 691:759 JLINK_SWO_Control(JLINKARM_SWO_CMD_FLUSH, ...)  returns 0x00 (0000ms, 64752ms total)
T0F18 691:759 JLINK_IsHalted()  returns FALSE (0002ms, 64754ms total)
T0F18 691:861 JLINK_SWO_Read(..., Offset = 0x00, NumBytes = 0x400000) - Data: 0E 29 10 C0 F5 C9 09 0E 29 20 C0 F7 01 0E 00 30 ...  NumBytesRead = 0xE6F (0000ms, 64752ms total)
T0F18 691:864 JLINK_SWO_Control(JLINKARM_SWO_CMD_FLUSH, ...)  returns 0x00 (0000ms, 64752ms total)
T0F18 691:864 JLINK_ReadMemU32(0xE0001004, 0x0001 Items, ...) - Data: CF F0 33 05  returns 0x01 (0000ms, 64752ms total)
T0F18 691:867 JLINK_IsHalted()  returns FALSE (0001ms, 64753ms total)
T0F18 691:969 JLINK_SWO_Read(..., Offset = 0x00, NumBytes = 0x400000) - Data: 0E 29 10 C0 F5 C9 09 0E 29 20 C0 F7 01 0E 00 30 ...  NumBytesRead = 0xE48 (0000ms, 64753ms total)
T0F18 691:971 JLINK_SWO_Control(JLINKARM_SWO_CMD_FLUSH, ...)  returns 0x00 (0000ms, 64753ms total)
T0F18 691:971 JLINK_IsHalted()  returns FALSE (0000ms, 64753ms total)
T0F18 692:072 JLINK_SWO_Read(..., Offset = 0x00, NumBytes = 0x400000) - Data: 0E 0F 10 C0 D1 53 0E 0F 20 C0 6F 0E 00 30 C0 07 ...  NumBytesRead = 0xDBE (0000ms, 64753ms total)
T0F18 692:074 JLINK_SWO_Control(JLINKARM_SWO_CMD_FLUSH, ...)  returns 0x00 (0000ms, 64753ms total)
T0F18 692:074 JLINK_IsHalted()  returns FALSE (0000ms, 64753ms total)
T0F18 692:177 JLINK_SWO_Read(..., Offset = 0x00, NumBytes = 0x400000) - Data: 0E 29 10 C0 F5 C9 09 0E 29 20 C0 F7 01 0E 00 30 ...  NumBytesRead = 0xE38 (0000ms, 64753ms total)
T0F18 692:180 JLINK_SWO_Control(JLINKARM_SWO_CMD_FLUSH, ...)  returns 0x00 (0000ms, 64753ms total)
T0F18 692:180 JLINK_IsHalted()  returns FALSE (0001ms, 64754ms total)
T0F18 692:282 JLINK_SWO_Read(..., Offset = 0x00, NumBytes = 0x400000) - Data: 0E 29 10 C0 F5 C9 09 0E 29 20 C0 F7 01 0E 00 30 ...  NumBytesRead = 0xE70 (0000ms, 64753ms total)
T0F18 692:284 JLINK_SWO_Control(JLINKARM_SWO_CMD_FLUSH, ...)  returns 0x00 (0000ms, 64753ms total)
T0F18 692:284 JLINK_IsHalted()  returns FALSE (0000ms, 64753ms total)
T0F18 692:386 JLINK_SWO_Read(..., Offset = 0x00, NumBytes = 0x400000) - Data: 0E 29 10 C0 F5 C9 09 0E 29 20 C0 F7 01 0E 00 30 ...  NumBytesRead = 0x15E3 (0000ms, 64753ms total)
T0F18 692:388 JLINK_SWO_Control(JLINKARM_SWO_CMD_FLUSH, ...)  returns 0x00 (0000ms, 64753ms total)
T0F18 692:396 JLINK_ReadMemU32(0xE0001004, 0x0001 Items, ...) - Data: CF F0 33 05  returns 0x01 (0000ms, 64753ms total)
T0F18 692:399 JLINK_IsHalted()  returns FALSE (0001ms, 64754ms total)
T0F18 692:501 JLINK_SWO_Read(..., Offset = 0x00, NumBytes = 0x400000) - Data: 0E 29 10 C0 F5 C9 09 0E 29 20 C0 F7 01 0E 00 30 ...  NumBytesRead = 0xFA1 (0000ms, 64754ms total)
T0F18 692:503 JLINK_SWO_Control(JLINKARM_SWO_CMD_FLUSH, ...)  returns 0x00 (0000ms, 64754ms total)
T0F18 692:503 JLINK_IsHalted()  returns FALSE (0001ms, 64755ms total)
T0F18 692:604 JLINK_SWO_Read(..., Offset = 0x00, NumBytes = 0x400000) - Data: 0E 29 10 C0 F5 C9 09 0E 29 20 C0 F7 01 0E 00 30 ...  NumBytesRead = 0xDD6 (0000ms, 64754ms total)
T0F18 692:606 JLINK_SWO_Control(JLINKARM_SWO_CMD_FLUSH, ...)  returns 0x00 (0000ms, 64754ms total)
T0F18 692:606 JLINK_IsHalted()  returns FALSE (0000ms, 64754ms total)
T0F18 692:708 JLINK_SWO_Read(..., Offset = 0x00, NumBytes = 0x400000) - Data: 0E 29 10 C0 F5 C9 09 0E 29 20 C0 F7 01 0E 00 30 ...  NumBytesRead = 0xDAE (0000ms, 64754ms total)
T0F18 692:709 JLINK_SWO_Control(JLINKARM_SWO_CMD_FLUSH, ...)  returns 0x00 (0000ms, 64754ms total)
T0F18 692:709 JLINK_IsHalted()  returns FALSE (0000ms, 64754ms total)
T0F18 692:811 JLINK_SWO_Read(..., Offset = 0x00, NumBytes = 0x400000) - Data: 0E 29 10 C0 F5 C9 09 0E 29 20 C0 F7 01 0E 00 30 ...  NumBytesRead = 0xF6C (0000ms, 64754ms total)
T0F18 692:813 JLINK_SWO_Control(JLINKARM_SWO_CMD_FLUSH, ...)  returns 0x00 (0000ms, 64754ms total)
T0F18 692:814 JLINK_IsHalted()  returns FALSE (0001ms, 64755ms total)
T0F18 692:916 JLINK_SWO_Read(..., Offset = 0x00, NumBytes = 0x400000) - Data: 0E 29 10 C0 F5 C9 09 0E 29 20 C0 F7 01 0E 00 30 ...  NumBytesRead = 0xE58 (0000ms, 64754ms total)
T0F18 692:919 JLINK_SWO_Control(JLINKARM_SWO_CMD_FLUSH, ...)  returns 0x00 (0000ms, 64754ms total)
T0F18 692:919 JLINK_ReadMemU32(0xE0001004, 0x0001 Items, ...) - Data: CF F0 33 05  returns 0x01 (0000ms, 64754ms total)
T0F18 692:921 JLINK_IsHalted()  returns FALSE (0001ms, 64755ms total)
T0F18 693:024 JLINK_SWO_Read(..., Offset = 0x00, NumBytes = 0x400000) - Data: 0E 29 10 C0 F5 C9 09 0E 29 20 C0 F7 01 0E 00 30 ...  NumBytesRead = 0xE36 (0000ms, 64755ms total)
T0F18 693:026 JLINK_SWO_Control(JLINKARM_SWO_CMD_FLUSH, ...)  returns 0x00 (0000ms, 64755ms total)
T0F18 693:026 JLINK_IsHalted()  returns FALSE (0001ms, 64756ms total)
T0F18 693:128 JLINK_SWO_Read(..., Offset = 0x00, NumBytes = 0x400000) - Data: 0E 29 10 C0 F5 C9 09 0E 29 20 C0 F7 01 0E 00 30 ...  NumBytesRead = 0xDD0 (0000ms, 64755ms total)
T0F18 693:130 JLINK_SWO_Control(JLINKARM_SWO_CMD_FLUSH, ...)  returns 0x00 (0000ms, 64755ms total)
T0F18 693:130 JLINK_IsHalted()  returns FALSE (0000ms, 64755ms total)
T0F18 693:231 JLINK_SWO_Read(..., Offset = 0x00, NumBytes = 0x400000) - Data: 0E 29 10 C0 F5 C9 09 0E 29 20 C0 F7 01 0E 00 30 ...  NumBytesRead = 0xDD0 (0000ms, 64755ms total)
T0F18 693:233 JLINK_SWO_Control(JLINKARM_SWO_CMD_FLUSH, ...)  returns 0x00 (0000ms, 64755ms total)
T0F18 693:233 JLINK_IsHalted()  returns FALSE (0000ms, 64755ms total)
T0F18 693:334 JLINK_SWO_Read(..., Offset = 0x00, NumBytes = 0x400000) - Data: 0E 29 10 C0 F5 C9 09 0E 29 20 C0 F7 01 0E 00 30 ...  NumBytesRead = 0x11FF (0000ms, 64755ms total)
T0F18 693:336 JLINK_SWO_Control(JLINKARM_SWO_CMD_FLUSH, ...)  returns 0x00 (0000ms, 64755ms total)
T0F18 693:340 JLINK_IsHalted()  returns FALSE (0000ms, 64755ms total)
T0F18 693:442 JLINK_SWO_Read(..., Offset = 0x00, NumBytes = 0x400000) - Data: 0E 29 10 C0 F5 C9 09 0E 29 20 C0 F7 01 0E 00 30 ...  NumBytesRead = 0xE5E (0000ms, 64755ms total)
T0F18 693:445 JLINK_SWO_Control(JLINKARM_SWO_CMD_FLUSH, ...)  returns 0x00 (0000ms, 64755ms total)
T0F18 693:445 JLINK_ReadMemU32(0xE0001004, 0x0001 Items, ...) - Data: CF F0 33 05  returns 0x01 (0000ms, 64755ms total)
T0F18 693:447 JLINK_IsHalted()  returns FALSE (0001ms, 64756ms total)
T0F18 693:548 JLINK_SWO_Read(..., Offset = 0x00, NumBytes = 0x400000) - Data: 0E 29 10 C0 F5 C9 09 0E 29 20 C0 F7 01 0E 00 30 ...  NumBytesRead = 0xE36 (0000ms, 64756ms total)
T0F18 693:551 JLINK_SWO_Control(JLINKARM_SWO_CMD_FLUSH, ...)  returns 0x00 (0000ms, 64756ms total)
T0F18 693:551 JLINK_IsHalted()  returns FALSE (0001ms, 64757ms total)
T0F18 693:653 JLINK_SWO_Read(..., Offset = 0x00, NumBytes = 0x400000) - Data: 0E 29 10 C0 F5 C9 09 0E 29 20 C0 F7 01 0E 00 30 ...  NumBytesRead = 0xDF2 (0000ms, 64756ms total)
T0F18 693:656 JLINK_SWO_Control(JLINKARM_SWO_CMD_FLUSH, ...)  returns 0x00 (0000ms, 64756ms total)
T0F18 693:656 JLINK_IsHalted()  returns FALSE (0001ms, 64757ms total)
T0F18 693:757 JLINK_SWO_Read(..., Offset = 0x00, NumBytes = 0x400000) - Data: 0E 29 10 C0 F5 C9 09 0E 29 20 C0 F7 01 0E 00 30 ...  NumBytesRead = 0xE14 (0000ms, 64756ms total)
T0F18 693:760 JLINK_SWO_Control(JLINKARM_SWO_CMD_FLUSH, ...)  returns 0x00 (0000ms, 64756ms total)
